!Agilent Technologies,E5071B,MY42403616,A.09.10
!Date: Mon Jul 10 16:33:43 2017
!Data & Calibration Information:
!Freq	S11:SOLT1(ON)
# Hz S dB R 50
300000	-8.828088e+000	-2.216874e-001
5612313	-8.858789e+000	-2.414109e+000
10924625	-8.941156e+000	-4.300805e+000
16236938	-9.043079e+000	-6.461178e+000
21549250	-9.168597e+000	-8.447210e+000
26861563	-9.301748e+000	-1.022247e+001
32173875	-9.493480e+000	-1.183489e+001
37486188	-9.656694e+000	-1.294516e+001
42798500	-9.814662e+000	-1.412298e+001
48110813	-1.003351e+001	-1.524029e+001
53423125	-1.020080e+001	-1.600251e+001
58735438	-1.043059e+001	-1.687824e+001
64047750	-1.053663e+001	-1.758381e+001
69360063	-1.071948e+001	-1.811847e+001
74672375	-1.084041e+001	-1.876269e+001
79984688	-1.097489e+001	-1.918051e+001
85297000	-1.109223e+001	-1.960150e+001
90609313	-1.120545e+001	-2.006586e+001
95921625	-1.129762e+001	-2.034932e+001
101233938	-1.139877e+001	-2.066763e+001
106546250	-1.148007e+001	-2.092769e+001
111858563	-1.158354e+001	-2.140029e+001
117170875	-1.164252e+001	-2.154042e+001
122483188	-1.171108e+001	-2.183167e+001
127795500	-1.175708e+001	-2.207294e+001
133107813	-1.182125e+001	-2.245454e+001
138420125	-1.187707e+001	-2.267489e+001
143732438	-1.194217e+001	-2.297246e+001
149044750	-1.197223e+001	-2.330497e+001
154357063	-1.202379e+001	-2.326646e+001
159669375	-1.206729e+001	-2.362629e+001
164981688	-1.211929e+001	-2.383167e+001
170294000	-1.218546e+001	-2.399734e+001
175606313	-1.219094e+001	-2.418612e+001
180918625	-1.227187e+001	-2.436255e+001
186230938	-1.229426e+001	-2.469064e+001
191543250	-1.236669e+001	-2.483709e+001
196855563	-1.241069e+001	-2.511758e+001
202167875	-1.244437e+001	-2.526428e+001
207480188	-1.250867e+001	-2.564828e+001
212792500	-1.255196e+001	-2.600432e+001
218104813	-1.260811e+001	-2.603005e+001
223417125	-1.264132e+001	-2.635715e+001
228729438	-1.269415e+001	-2.677586e+001
234041750	-1.273502e+001	-2.698813e+001
239354063	-1.278861e+001	-2.748249e+001
244666375	-1.283374e+001	-2.770696e+001
249978688	-1.287468e+001	-2.827238e+001
255291000	-1.292746e+001	-2.858870e+001
260603313	-1.300958e+001	-2.873114e+001
265915625	-1.302765e+001	-2.938646e+001
271227938	-1.307317e+001	-2.972055e+001
276540250	-1.313253e+001	-3.027674e+001
281852563	-1.317335e+001	-3.041803e+001
287164875	-1.322064e+001	-3.086004e+001
292477188	-1.326969e+001	-3.134164e+001
297789500	-1.327729e+001	-3.166434e+001
303101813	-1.334367e+001	-3.210557e+001
308414125	-1.333374e+001	-3.236828e+001
313726438	-1.341636e+001	-3.284888e+001
319038750	-1.343909e+001	-3.336459e+001
324351063	-1.348793e+001	-3.368180e+001
329663375	-1.351793e+001	-3.412057e+001
334975688	-1.353287e+001	-3.449191e+001
340288000	-1.359102e+001	-3.477211e+001
345600313	-1.363011e+001	-3.536797e+001
350912625	-1.364926e+001	-3.565455e+001
356224938	-1.369166e+001	-3.620801e+001
361537250	-1.373570e+001	-3.647314e+001
366849563	-1.372854e+001	-3.685473e+001
372161875	-1.375857e+001	-3.738556e+001
377474188	-1.381491e+001	-3.774892e+001
382786500	-1.383410e+001	-3.812242e+001
388098813	-1.385540e+001	-3.835728e+001
393411125	-1.385243e+001	-3.860225e+001
398723438	-1.388408e+001	-3.918949e+001
404035750	-1.391498e+001	-3.953144e+001
409348063	-1.393232e+001	-3.976936e+001
414660375	-1.394775e+001	-4.010781e+001
419972688	-1.399011e+001	-4.050781e+001
425285000	-1.402060e+001	-4.095547e+001
430597313	-1.405364e+001	-4.115984e+001
435909625	-1.405045e+001	-4.134420e+001
441221938	-1.407508e+001	-4.159786e+001
446534250	-1.413761e+001	-4.179446e+001
451846563	-1.413106e+001	-4.230094e+001
457158875	-1.417514e+001	-4.243351e+001
462471188	-1.423404e+001	-4.267596e+001
467783500	-1.426159e+001	-4.303602e+001
473095813	-1.429457e+001	-4.314529e+001
478408125	-1.431727e+001	-4.363979e+001
483720438	-1.442500e+001	-4.376887e+001
489032750	-1.441301e+001	-4.409075e+001
494345063	-1.452937e+001	-4.425464e+001
499657375	-1.451790e+001	-4.485752e+001
504969688	-1.456818e+001	-4.516951e+001
510282000	-1.465117e+001	-4.544348e+001
515594313	-1.467331e+001	-4.580334e+001
520906625	-1.470863e+001	-4.649696e+001
526218938	-1.476964e+001	-4.692131e+001
531531250	-1.481381e+001	-4.739058e+001
536843563	-1.484934e+001	-4.788004e+001
542155875	-1.487235e+001	-4.836267e+001
547468188	-1.494751e+001	-4.907807e+001
552780500	-1.495143e+001	-4.963436e+001
558092813	-1.499832e+001	-4.991853e+001
563405125	-1.500674e+001	-5.088928e+001
568717438	-1.511911e+001	-5.136074e+001
574029750	-1.515158e+001	-5.201742e+001
579342063	-1.518838e+001	-5.220496e+001
584654375	-1.522339e+001	-5.242287e+001
589966688	-1.520874e+001	-5.276204e+001
595279000	-1.523112e+001	-5.291242e+001
600591313	-1.521863e+001	-5.342333e+001
605903625	-1.522621e+001	-5.364595e+001
611215938	-1.525288e+001	-5.389653e+001
616528250	-1.524577e+001	-5.410982e+001
621840563	-1.523673e+001	-5.450873e+001
627152875	-1.527864e+001	-5.474345e+001
632465188	-1.529763e+001	-5.480592e+001
637777500	-1.534032e+001	-5.540346e+001
643089813	-1.531859e+001	-5.538511e+001
648402125	-1.535340e+001	-5.578920e+001
653714438	-1.535950e+001	-5.604052e+001
659026750	-1.538708e+001	-5.598390e+001
664339063	-1.541916e+001	-5.632652e+001
669651375	-1.540039e+001	-5.668471e+001
674963688	-1.548684e+001	-5.691986e+001
680276000	-1.548964e+001	-5.731741e+001
685588313	-1.553639e+001	-5.813370e+001
690900625	-1.557908e+001	-5.802608e+001
696212938	-1.560065e+001	-5.842413e+001
701525250	-1.565466e+001	-5.899545e+001
706837563	-1.566254e+001	-5.941371e+001
712149875	-1.567656e+001	-5.961114e+001
717462188	-1.574500e+001	-6.036115e+001
722774500	-1.576134e+001	-6.112415e+001
728086813	-1.575032e+001	-6.146684e+001
733399125	-1.581398e+001	-6.194088e+001
738711438	-1.577885e+001	-6.256209e+001
744023750	-1.579351e+001	-6.318728e+001
749336063	-1.581725e+001	-6.365760e+001
754648375	-1.580710e+001	-6.424152e+001
759960688	-1.588695e+001	-6.454831e+001
765273000	-1.585289e+001	-6.484528e+001
770585313	-1.576121e+001	-6.580234e+001
775897625	-1.576589e+001	-6.624219e+001
781209938	-1.581476e+001	-6.679676e+001
786522250	-1.583725e+001	-6.719688e+001
791834563	-1.583337e+001	-6.790239e+001
797146875	-1.581160e+001	-6.824624e+001
802459188	-1.580044e+001	-6.868942e+001
807771500	-1.576633e+001	-6.914671e+001
813083813	-1.579800e+001	-7.016187e+001
818396125	-1.582532e+001	-7.074917e+001
823708438	-1.576209e+001	-7.097248e+001
829020750	-1.576513e+001	-7.173210e+001
834333063	-1.585578e+001	-7.199438e+001
839645375	-1.587147e+001	-7.269601e+001
844957688	-1.589992e+001	-7.326043e+001
850270000	-1.588488e+001	-7.392403e+001
855582313	-1.593900e+001	-7.440529e+001
860894625	-1.592749e+001	-7.526273e+001
866206938	-1.598724e+001	-7.591231e+001
871519250	-1.599576e+001	-7.671241e+001
876831563	-1.603399e+001	-7.704738e+001
882143875	-1.601936e+001	-7.798973e+001
887456188	-1.600321e+001	-7.860878e+001
892768500	-1.604354e+001	-7.958156e+001
898080813	-1.604421e+001	-8.034488e+001
903393125	-1.603333e+001	-8.122612e+001
908705438	-1.607565e+001	-8.134729e+001
914017750	-1.609320e+001	-8.231837e+001
919330063	-1.612379e+001	-8.297559e+001
924642375	-1.613636e+001	-8.368378e+001
929954688	-1.617470e+001	-8.449039e+001
935267000	-1.607547e+001	-8.480797e+001
940579313	-1.617843e+001	-8.556570e+001
945891625	-1.618964e+001	-8.637373e+001
951203938	-1.620267e+001	-8.698396e+001
956516250	-1.621086e+001	-8.776694e+001
961828563	-1.626215e+001	-8.810653e+001
967140875	-1.629560e+001	-8.857134e+001
972453188	-1.635397e+001	-8.958506e+001
977765500	-1.636680e+001	-9.014649e+001
983077813	-1.639843e+001	-9.029979e+001
988390125	-1.645459e+001	-9.097954e+001
993702438	-1.650763e+001	-9.129731e+001
999014750	-1.656127e+001	-9.202470e+001
1004327063	-1.659096e+001	-9.244849e+001
1009639375	-1.665327e+001	-9.339769e+001
1014951688	-1.669282e+001	-9.365099e+001
1020264000	-1.678553e+001	-9.412706e+001
1025576313	-1.673446e+001	-9.438941e+001
1030888625	-1.678247e+001	-9.548591e+001
1036200938	-1.678482e+001	-9.554776e+001
1041513250	-1.676934e+001	-9.641842e+001
1046825563	-1.675213e+001	-9.691601e+001
1052137875	-1.678350e+001	-9.759639e+001
1057450188	-1.672777e+001	-9.869550e+001
1062762500	-1.672241e+001	-9.963172e+001
1068074813	-1.671055e+001	-1.005162e+002
1073387125	-1.677432e+001	-1.011263e+002
1078699438	-1.679239e+001	-1.019589e+002
1084011750	-1.679040e+001	-1.026670e+002
1089324063	-1.680527e+001	-1.033753e+002
1094636375	-1.681513e+001	-1.039879e+002
1099948688	-1.686492e+001	-1.047787e+002
1105261000	-1.685007e+001	-1.055520e+002
1110573313	-1.686717e+001	-1.060548e+002
1115885625	-1.688526e+001	-1.067396e+002
1121197938	-1.687930e+001	-1.073187e+002
1126510250	-1.693001e+001	-1.075549e+002
1131822563	-1.699658e+001	-1.086042e+002
1137134875	-1.699736e+001	-1.091397e+002
1142447188	-1.698313e+001	-1.096215e+002
1147759500	-1.705313e+001	-1.100441e+002
1153071813	-1.708567e+001	-1.107085e+002
1158384125	-1.708123e+001	-1.114848e+002
1163696438	-1.708036e+001	-1.116762e+002
1169008750	-1.718279e+001	-1.124154e+002
1174321063	-1.720389e+001	-1.131882e+002
1179633375	-1.726334e+001	-1.139665e+002
1184945688	-1.721850e+001	-1.145045e+002
1190258000	-1.725567e+001	-1.151688e+002
1195570313	-1.722728e+001	-1.157656e+002
1200882625	-1.730427e+001	-1.164772e+002
1206194938	-1.725824e+001	-1.168399e+002
1211507250	-1.723999e+001	-1.176466e+002
1216819563	-1.730791e+001	-1.183369e+002
1222131875	-1.726869e+001	-1.189041e+002
1227444188	-1.729535e+001	-1.194176e+002
1232756500	-1.729739e+001	-1.201100e+002
1238068813	-1.724241e+001	-1.203688e+002
1243381125	-1.728401e+001	-1.212721e+002
1248693438	-1.725306e+001	-1.217062e+002
1254005750	-1.728239e+001	-1.221332e+002
1259318063	-1.728559e+001	-1.227090e+002
1264630375	-1.730115e+001	-1.231579e+002
1269942688	-1.729948e+001	-1.240200e+002
1275255000	-1.729273e+001	-1.238847e+002
1280567313	-1.723569e+001	-1.245125e+002
1285879625	-1.728164e+001	-1.249551e+002
1291191938	-1.733136e+001	-1.252211e+002
1296504250	-1.736639e+001	-1.256488e+002
1301816563	-1.737953e+001	-1.263684e+002
1307128875	-1.741918e+001	-1.268716e+002
1312441188	-1.741891e+001	-1.272608e+002
1317753500	-1.742232e+001	-1.281759e+002
1323065813	-1.746013e+001	-1.283372e+002
1328378125	-1.743944e+001	-1.292292e+002
1333690438	-1.748267e+001	-1.297045e+002
1339002750	-1.747458e+001	-1.305252e+002
1344315063	-1.753541e+001	-1.315588e+002
1349627375	-1.745943e+001	-1.319882e+002
1354939688	-1.747438e+001	-1.327694e+002
1360252000	-1.743593e+001	-1.335083e+002
1365564313	-1.743075e+001	-1.342118e+002
1370876625	-1.739154e+001	-1.345885e+002
1376188938	-1.739001e+001	-1.355428e+002
1381501250	-1.736807e+001	-1.357319e+002
1386813563	-1.737304e+001	-1.363221e+002
1392125875	-1.730547e+001	-1.371958e+002
1397438188	-1.726214e+001	-1.375122e+002
1402750500	-1.724849e+001	-1.382002e+002
1408062813	-1.715741e+001	-1.385800e+002
1413375125	-1.717164e+001	-1.390137e+002
1418687438	-1.707671e+001	-1.392923e+002
1423999750	-1.706522e+001	-1.398077e+002
1429312063	-1.706776e+001	-1.397650e+002
1434624375	-1.702267e+001	-1.399793e+002
1439936688	-1.701243e+001	-1.407102e+002
1445249000	-1.694026e+001	-1.407994e+002
1450561313	-1.699690e+001	-1.410925e+002
1455873625	-1.703774e+001	-1.413585e+002
1461185938	-1.701662e+001	-1.416262e+002
1466498250	-1.699582e+001	-1.417598e+002
1471810563	-1.693012e+001	-1.422913e+002
1477122875	-1.698512e+001	-1.425431e+002
1482435188	-1.697160e+001	-1.430429e+002
1487747500	-1.699616e+001	-1.433594e+002
1493059813	-1.705970e+001	-1.437616e+002
1498372125	-1.704217e+001	-1.441426e+002
1503684438	-1.701337e+001	-1.444923e+002
1508996750	-1.708080e+001	-1.452390e+002
1514309063	-1.707371e+001	-1.453472e+002
1519621375	-1.699902e+001	-1.459058e+002
1524933688	-1.709087e+001	-1.460912e+002
1530246000	-1.704262e+001	-1.467141e+002
1535558313	-1.703287e+001	-1.467434e+002
1540870625	-1.697306e+001	-1.473778e+002
1546182938	-1.696535e+001	-1.474605e+002
1551495250	-1.690879e+001	-1.478088e+002
1556807563	-1.681220e+001	-1.483698e+002
1562119875	-1.676079e+001	-1.491122e+002
1567432188	-1.675735e+001	-1.490079e+002
1572744500	-1.669862e+001	-1.494906e+002
1578056813	-1.662556e+001	-1.497251e+002
1583369125	-1.658635e+001	-1.503539e+002
1588681438	-1.657815e+001	-1.509853e+002
1593993750	-1.653576e+001	-1.512310e+002
1599306063	-1.653713e+001	-1.511618e+002
1604618375	-1.648518e+001	-1.517769e+002
1609930688	-1.648248e+001	-1.517572e+002
1615243000	-1.648705e+001	-1.521222e+002
1620555313	-1.643023e+001	-1.524178e+002
1625867625	-1.637883e+001	-1.525182e+002
1631179938	-1.639096e+001	-1.528034e+002
1636492250	-1.638919e+001	-1.528978e+002
1641804563	-1.635745e+001	-1.532736e+002
1647116875	-1.634439e+001	-1.537814e+002
1652429188	-1.638620e+001	-1.541117e+002
1657741500	-1.635228e+001	-1.544544e+002
1663053813	-1.637360e+001	-1.548767e+002
1668366125	-1.637022e+001	-1.553777e+002
1673678438	-1.634637e+001	-1.561056e+002
1678990750	-1.636933e+001	-1.566888e+002
1684303063	-1.639640e+001	-1.567427e+002
1689615375	-1.636535e+001	-1.572388e+002
1694927688	-1.634042e+001	-1.578171e+002
1700240000	-1.634783e+001	-1.580843e+002
1705552313	-1.628271e+001	-1.586528e+002
1710864625	-1.631699e+001	-1.588258e+002
1716176938	-1.628995e+001	-1.588102e+002
1721489250	-1.635682e+001	-1.594848e+002
1726801563	-1.628845e+001	-1.594969e+002
1732113875	-1.625284e+001	-1.600340e+002
1737426188	-1.626173e+001	-1.596839e+002
1742738500	-1.620872e+001	-1.595763e+002
1748050813	-1.618699e+001	-1.601809e+002
1753363125	-1.620006e+001	-1.598809e+002
1758675438	-1.616258e+001	-1.599210e+002
1763987750	-1.614301e+001	-1.600099e+002
1769300063	-1.618369e+001	-1.599184e+002
1774612375	-1.613774e+001	-1.596359e+002
1779924688	-1.611175e+001	-1.597525e+002
1785237000	-1.610291e+001	-1.591085e+002
1790549313	-1.614490e+001	-1.594992e+002
1795861625	-1.616327e+001	-1.595257e+002
1801173938	-1.609185e+001	-1.590946e+002
1806486250	-1.617263e+001	-1.587975e+002
1811798563	-1.614847e+001	-1.589054e+002
1817110875	-1.614875e+001	-1.588798e+002
1822423188	-1.607549e+001	-1.588164e+002
1827735500	-1.615527e+001	-1.587421e+002
1833047813	-1.611120e+001	-1.586760e+002
1838360125	-1.612307e+001	-1.590526e+002
1843672438	-1.610069e+001	-1.588423e+002
1848984750	-1.602466e+001	-1.589841e+002
1854297063	-1.600175e+001	-1.591087e+002
1859609375	-1.596903e+001	-1.590924e+002
1864921688	-1.590337e+001	-1.596530e+002
1870234000	-1.584498e+001	-1.598165e+002
1875546313	-1.575357e+001	-1.598729e+002
1880858625	-1.565114e+001	-1.602147e+002
1886170938	-1.559746e+001	-1.601817e+002
1891483250	-1.547372e+001	-1.609054e+002
1896795563	-1.543508e+001	-1.611009e+002
1902107875	-1.534253e+001	-1.616105e+002
1907420188	-1.523146e+001	-1.618466e+002
1912732500	-1.517365e+001	-1.622339e+002
1918044813	-1.500527e+001	-1.626596e+002
1923357125	-1.496054e+001	-1.627685e+002
1928669438	-1.491678e+001	-1.635021e+002
1933981750	-1.483367e+001	-1.638687e+002
1939294063	-1.484259e+001	-1.640693e+002
1944606375	-1.472724e+001	-1.644746e+002
1949918688	-1.471416e+001	-1.646300e+002
1955231000	-1.467685e+001	-1.648122e+002
1960543313	-1.465666e+001	-1.652246e+002
1965855625	-1.464348e+001	-1.654323e+002
1971167938	-1.460796e+001	-1.655470e+002
1976480250	-1.461264e+001	-1.655716e+002
1981792563	-1.456315e+001	-1.661045e+002
1987104875	-1.456018e+001	-1.661399e+002
1992417188	-1.450325e+001	-1.666008e+002
1997729500	-1.449138e+001	-1.669592e+002
2003041813	-1.452886e+001	-1.669672e+002
2008354125	-1.447036e+001	-1.671593e+002
2013666438	-1.444376e+001	-1.675685e+002
2018978750	-1.449593e+001	-1.682561e+002
2024291063	-1.444017e+001	-1.687105e+002
2029603375	-1.440460e+001	-1.686249e+002
2034915688	-1.438599e+001	-1.691788e+002
2040228000	-1.439540e+001	-1.696396e+002
2045540313	-1.439979e+001	-1.696390e+002
2050852625	-1.437357e+001	-1.699018e+002
2056164938	-1.434160e+001	-1.703166e+002
2061477250	-1.436114e+001	-1.705569e+002
2066789563	-1.431806e+001	-1.707566e+002
2072101875	-1.432361e+001	-1.709223e+002
2077414188	-1.429526e+001	-1.711756e+002
2082726500	-1.425473e+001	-1.714163e+002
2088038813	-1.424810e+001	-1.715580e+002
2093351125	-1.421665e+001	-1.716958e+002
2098663438	-1.419503e+001	-1.717746e+002
2103975750	-1.420476e+001	-1.720341e+002
2109288063	-1.418385e+001	-1.721437e+002
2114600375	-1.417826e+001	-1.722865e+002
2119912688	-1.413991e+001	-1.722530e+002
2125225000	-1.414250e+001	-1.724195e+002
2130537313	-1.412348e+001	-1.725089e+002
2135849625	-1.410827e+001	-1.727753e+002
2141161938	-1.415215e+001	-1.726070e+002
2146474250	-1.408836e+001	-1.728386e+002
2151786563	-1.414686e+001	-1.731646e+002
2157098875	-1.413093e+001	-1.734370e+002
2162411188	-1.411408e+001	-1.734482e+002
2167723500	-1.410305e+001	-1.738398e+002
2173035813	-1.409743e+001	-1.738820e+002
2178348125	-1.413505e+001	-1.738382e+002
2183660438	-1.411878e+001	-1.743176e+002
2188972750	-1.409760e+001	-1.745448e+002
2194285063	-1.409682e+001	-1.745787e+002
2199597375	-1.407627e+001	-1.749938e+002
2204909688	-1.406199e+001	-1.752226e+002
2210222000	-1.404509e+001	-1.755523e+002
2215534313	-1.403636e+001	-1.754500e+002
2220846625	-1.400656e+001	-1.756793e+002
2226158938	-1.399791e+001	-1.758295e+002
2231471250	-1.399747e+001	-1.760417e+002
2236783563	-1.397282e+001	-1.761762e+002
2242095875	-1.396576e+001	-1.764438e+002
2247408188	-1.391168e+001	-1.765472e+002
2252720500	-1.388665e+001	-1.765909e+002
2258032813	-1.387362e+001	-1.770277e+002
2263345125	-1.384735e+001	-1.771159e+002
2268657438	-1.387479e+001	-1.771313e+002
2273969750	-1.382616e+001	-1.771323e+002
2279282063	-1.387057e+001	-1.777252e+002
2284594375	-1.380765e+001	-1.778354e+002
2289906688	-1.378324e+001	-1.776925e+002
2295219000	-1.378433e+001	-1.781129e+002
2300531313	-1.378688e+001	-1.780605e+002
2305843625	-1.375454e+001	-1.782225e+002
2311155938	-1.375542e+001	-1.783869e+002
2316468250	-1.373940e+001	-1.785395e+002
2321780563	-1.374522e+001	-1.786510e+002
2327092875	-1.374128e+001	-1.790146e+002
2332405188	-1.373190e+001	-1.789214e+002
2337717500	-1.372454e+001	-1.791884e+002
2343029813	-1.369831e+001	-1.794518e+002
2348342125	-1.370078e+001	-1.795922e+002
2353654438	-1.371371e+001	-1.797569e+002
2358966750	-1.369396e+001	-1.798443e+002
2364279063	-1.369219e+001	-1.799542e+002
2369591375	-1.368504e+001	1.796605e+002
2374903688	-1.367996e+001	1.794797e+002
2380216000	-1.366633e+001	1.792949e+002
2385528313	-1.367157e+001	1.790330e+002
2390840625	-1.364033e+001	1.789232e+002
2396152938	-1.361177e+001	1.787185e+002
2401465250	-1.362653e+001	1.786152e+002
2406777563	-1.360833e+001	1.786032e+002
2412089875	-1.363282e+001	1.783483e+002
2417402188	-1.359256e+001	1.780416e+002
2422714500	-1.360850e+001	1.779019e+002
2428026813	-1.357675e+001	1.775884e+002
2433339125	-1.361769e+001	1.771866e+002
2438651438	-1.359437e+001	1.771051e+002
2443963750	-1.360269e+001	1.769275e+002
2449276063	-1.361781e+001	1.765469e+002
2454588375	-1.362593e+001	1.761379e+002
2459900688	-1.361221e+001	1.759867e+002
2465213000	-1.361210e+001	1.757826e+002
2470525313	-1.361231e+001	1.753427e+002
2475837625	-1.360754e+001	1.749662e+002
2481149938	-1.357122e+001	1.747125e+002
2486462250	-1.358684e+001	1.743643e+002
2491774563	-1.356727e+001	1.741935e+002
2497086875	-1.357567e+001	1.735837e+002
2502399188	-1.359281e+001	1.733003e+002
2507711500	-1.358121e+001	1.729727e+002
2513023813	-1.353969e+001	1.725043e+002
2518336125	-1.354134e+001	1.724256e+002
2523648438	-1.353997e+001	1.722665e+002
2528960750	-1.349621e+001	1.718559e+002
2534273063	-1.352932e+001	1.715546e+002
2539585375	-1.344035e+001	1.712909e+002
2544897688	-1.344665e+001	1.709586e+002
2550210000	-1.342495e+001	1.707176e+002
2555522313	-1.343382e+001	1.705035e+002
2560834625	-1.341258e+001	1.700786e+002
2566146938	-1.337310e+001	1.701576e+002
2571459250	-1.336533e+001	1.699625e+002
2576771563	-1.332716e+001	1.698426e+002
2582083875	-1.333843e+001	1.694627e+002
2587396188	-1.335423e+001	1.694356e+002
2592708500	-1.335460e+001	1.693263e+002
2598020813	-1.337725e+001	1.692288e+002
