!Port 1 = Pin 1 = Direct Port
!Port 2 = Pin 2 = Isolated Port
!Port 3 = Pin 5 = Coupled Port
!Port 4 = Pin 6 = Input Port
# MHZ S DB R 50
!Freq     S11       S11       S12       S12       S13       S13       S14       S14       S21       S21       S22       S22       S23       S23       S24       S24       S31       S31       S32       S32       S33       S33       S34       S34       S41       S41       S42       S42       S43       S43       S44       S44
!MHz      [dB]      [deg]     [dB]      [deg]     [dB]      [deg]     [dB]      [deg]     [dB]      [deg]     [dB]      [deg]     [dB]      [deg]     [dB]      [deg]     [dB]      [deg]     [dB]      [deg]     [dB]      [deg]     [dB]      [deg]     [dB]      [deg]     [dB]      [deg]     [dB]      [deg]     [dB]      [deg]
!Freq     magS11   angS11     magS12   angS12     magS13   angS13     magS14   angS14
!         magS21   angS21     magS22   angS22     magS23   angS23     magS24   angS24
!         magS31   angS31     magS32   angS32     magS33   angS33     magS34   angS34
!         magS41   angS41     magS42   angS42     magS43   angS43     magS44   angS44
!Freq     dBS11      angS11     dBS12      angS12     dBS13      angS13     dBS14      angS14    
!         dBS21      angS21     dBS22      angS22     dBS23      angS23     dBS24      angS24    
!         dBS31      angS31     dBS32      angS32     dBS33      angS33     dBS34      angS34    
!         dBS41      angS41     dBS42      angS42     dBS43      angS43     dBS44      angS44    
0.3000    -28.480088 -101.309500 -70.812150 89.729800  -88.178708 -143.047600 -0.060604  -0.855700
          -69.193411 100.700500 -13.055508 -85.372500 -0.154799  -0.675800  -77.855801 -43.580100
          -77.992589 -90.724200 -0.150900  -1.490700  -28.760332 -80.476700 -71.801338 87.033600
          -0.051897  -0.589700  -83.876401 -64.899100 -71.404954 105.942700 -12.679801 -87.039000
5.6123    -45.131373 38.051500  -49.121121 84.290300  -63.556638 -118.747200 -0.031204  -0.388800
          -49.049428 84.722700  -32.964847 19.696200  -0.161097  -0.653400  -63.349822 -118.165800
          -63.349822 -116.530500 -0.166204  -0.882400  -33.673463 13.936800  -49.064213 84.057300
          -0.022900  -0.306300  -63.675174 -119.756700 -49.044506 84.382700  -40.836370 50.878700
10.9246   -44.410956 37.487400  -43.548793 85.319800  -59.355686 -114.635400 -0.027604  -0.616500
          -43.542261 85.367800  -33.305297 16.841200  -0.161999  -1.449600  -59.259442 -114.798700
          -59.172146 -114.789300 -0.161097  -1.416400  -33.604142 17.879300  -43.556638 85.415100
          -0.027996  -0.616400  -59.187953 -114.617000 -43.527907 85.377700  -43.567110 37.193000
16.2369   -43.728380 46.226900  -40.200331 85.579300  -56.588899 -114.293400 -0.035197  -0.897600
          -40.201220 85.555800  -33.002022 22.435400  -0.168400  -2.079700  -56.512988 -113.307200
          -56.437735 -112.947100 -0.165097  -2.124700  -33.271206 24.253400  -40.194999 85.352400
          -0.034796  -0.890500  -56.495564 -114.837500 -40.191447 85.522600  -43.114185 45.136400
21.5493   -41.158846 52.118200  -37.794268 85.237100  -54.591082 -114.841900 -0.041697  -1.140000
          -37.811804 85.077100  -32.339140 28.366300  -0.170003  -2.765600  -54.614412 -114.022600
          -54.512224 -114.222200 -0.171402  -2.762900  -32.363264 29.437000  -37.813830 85.271800
          -0.037796  -1.152300  -54.544608 -115.008000 -37.817883 85.281300  -41.108373 51.488900
26.8616   -39.599407 56.737200  -35.938254 85.030600  -52.960211 -115.863900 -0.042203  -1.400900
          -35.945875 84.987800  -31.691851 33.036900  -0.172297  -3.421200  -52.967939 -115.851000
          -53.030009 -115.696900 -0.175603  -3.438600  -31.669853 34.043100  -35.952414 85.004200
          -0.037299  -1.429500  -53.057304 -115.723200 -35.944242 85.021700  -39.728090 56.427000
32.1739   -38.598503 59.054600  -34.422186 84.720200  -51.734005 -116.444800 -0.043198  -1.701500
          -34.425385 84.677800  -31.066772 36.831500  -0.177898  -4.081700  -51.750789 -116.954600
          -51.740715 -116.317100 -0.179202  -4.104600  -31.044130 37.469200  -34.412137 84.745600
          -0.043503  -1.718500  -51.703874 -116.881800 -34.418530 84.677600  -38.653374 59.013400
37.4862   -37.638014 60.197800  -33.128677 84.364100  -50.674514 -117.731400 -0.043896  -1.979100
          -33.127890 84.235000  -30.331963 39.440800  -0.179299  -4.761500  -50.680453 -117.233500
          -50.692343 -117.582500 -0.185198  -4.770500  -30.331963 39.995600  -33.119625 84.278000
          -0.045800  -1.992900  -50.609450 -118.198400 -33.127102 84.322700  -37.609604 60.073400
42.7985   -36.720085 61.462000  -32.011025 83.899100  -49.621829 -118.082900 -0.048000  -2.239800
          -32.007910 83.909300  -29.697365 41.552200  -0.188597  -5.419500  -49.677228 -118.250300
          -49.703734 -118.549000 -0.188402  -5.410300  -29.717549 41.939000  -32.009294 83.942700
          -0.051198  -2.233000  -49.722336 -118.321800 -32.009641 83.911100  -36.666071 60.941000
48.1108   -35.879142 62.259700  -31.002722 83.544000  -48.732752 -120.250300 -0.046000  -2.500800
          -31.021856 83.577700  -28.997146 43.158900  -0.192397  -6.078500  -48.823430 -119.241900
          -48.837834 -119.553100 -0.187399  -6.086600  -29.136277 43.553100  -31.021238 83.525900
          -0.049896  -2.519800  -48.932050 -120.088200 -31.023401 83.645100  -35.862404 61.779700
53.4231   -35.169568 63.036900  -30.124985 83.159100  -48.178708 -120.243600 -0.049503  -2.770500
          -30.138371 83.103400  -28.411646 44.091400  -0.196403  -6.710800  -48.143146 -121.337900
          -48.156465 -120.433600 -0.195603  -6.737400  -28.579340 44.869000  -30.134186 83.167600
          -0.052098  -2.768700  -48.154244 -121.001100 -30.125264 83.164800  -35.063138 62.260100
58.7354   -34.515457 63.673800  -29.339820 82.720200  -47.405693 -121.082100 -0.054204  -3.051100
          -29.334730 82.718700  -27.896055 44.713400  -0.200002  -7.378600  -47.549503 -121.533500
          -47.493751 -121.663400 -0.200802  -7.397500  -28.068058 45.977100  -29.332949 82.749200
          -0.052299  -3.043800  -47.467035 -122.074800 -29.336002 82.776600  -34.460659 62.249400
64.0478   -33.991569 63.310600  -28.617908 82.305800  -46.790280 -122.369500 -0.050700  -3.325800
          -28.608543 82.229000  -27.427931 45.087900  -0.202802  -8.061700  -46.870370 -123.393300
          -46.853145 -122.202900 -0.202198  -8.047800  -27.569827 46.723600  -28.599655 82.344600
          -0.052299  -3.319300  -46.897231 -123.146300 -28.610415 82.308400  -33.905451 62.575700
69.3601   -33.498722 63.508400  -27.934081 81.890900  -46.229824 -123.731100 -0.059003  -3.567200
          -27.938846 81.819400  -27.160212 45.396100  -0.204296  -8.681600  -46.346270 -124.061600
          -46.304888 -123.834900 -0.210496  -8.692400  -27.089983 47.413900  -27.936463 81.973600
          -0.057902  -3.571500  -46.362518 -124.178500 -27.939929 81.956200  -33.436079 62.578600
74.6724   -32.965620 63.193800  -27.318116 81.455100  -45.770604 -125.050700 -0.061103  -3.836700
          -27.310455 81.500600  -26.700207 47.672200  -0.209802  -9.333100  -45.760483 -124.898200
          -45.870765 -124.642600 -0.216701  -9.344100  -26.657107 47.891900  -27.312470 81.540200
          -0.058400  -3.817700  -45.801040 -125.431100 -27.310455 81.550100  -33.056523 63.306600
79.9847   -32.543232 63.177200  -26.743710 81.094700  -45.251376 -125.992700 -0.061899  -4.075200
          -26.751833 81.100900  -26.234986 47.267300  -0.219400  -9.949600  -45.308804 -126.089900
          -45.331239 -126.096900 -0.221396  -9.956900  -26.241577 48.105400  -26.736539 81.147200
          -0.063998  -4.069900  -45.339266 -126.318900 -26.744655 81.134600  -32.537345 63.917200
85.2970   -32.070782 63.133300  -26.200156 80.647900  -44.796075 -127.055500 -0.064602  -4.415700
          -26.199270 80.621400  -25.855923 47.713500  -0.224497  -10.664000 -44.824789 -127.066300
          -44.852079 -127.596900 -0.222500  -10.672000 -25.865986 48.246300  -26.198029 80.638200
          -0.064200  -4.406800  -44.862716 -127.469700 -26.203349 80.697700  -32.055456 63.897600
90.6093   -31.645253 63.360200  -25.692972 80.267400  -44.363457 -128.529100 -0.068296  -4.529400
          -25.696151 80.495600  -25.496147 48.223000  -0.230899  -11.186900 -44.324786 -128.415600
          -44.436975 -128.412800 -0.230498  -11.161500 -25.490752 48.571600  -25.696151 80.479200
          -0.071702  -4.536200  -44.412400 -128.557000 -25.693474 80.276500  -31.622048 63.836400
95.9216   -31.264983 63.704700  -25.213934 79.895100  -43.907672 -129.614700 -0.068602  -4.858500
          -25.215517 79.932200  -25.138118 48.388700  -0.234298  -11.897400 -43.948630 -129.637600
          -43.991158 -129.795500 -0.230801  -11.899700 -25.151468 48.642200  -25.215359 79.915000
          -0.072000  -4.857800  -43.941790 -130.021800 -25.216151 79.942500  -31.267843 63.544600
101.2339  -30.886661 63.711200  -24.761594 79.422000  -43.567110 -130.911400 -0.075696  -5.143700
          -24.768359 79.470900  -24.796528 48.570600  -0.243503  -12.542500 -43.507072 -131.149000
          -43.619656 -131.108500 -0.239297  -12.541500 -24.824335 48.767800  -24.768058 79.492900
          -0.075504  -5.141200  -43.567110 -131.255500 -24.766855 79.510300  -30.925991 63.787700
106.5463  -30.602676 63.770500  -24.339375 79.022300  -43.225536 -131.774800 -0.077703  -5.386500
          -24.342525 79.031700  -24.472079 48.582900  -0.245397  -13.186000 -43.155306 -132.246500
          -43.273518 -132.197500 -0.244602  -13.175400 -24.501781 48.844400  -24.336512 79.088200
          -0.078799  -5.407800  -43.199133 -132.745400 -24.336512 79.083500  -30.546333 63.807100
111.8586  -30.261761 63.923700  -23.935092 78.609500  -42.802830 -133.333000 -0.083901  -5.684800
          -23.933863 78.601400  -24.165345 48.374900  -0.254301  -13.814000 -42.831662 -133.654700
          -42.871465 -133.445900 -0.252396  -13.840100 -24.183745 48.934100  -23.934136 78.639700
          -0.083498  -5.674800  -42.872674 -134.115400 -23.933999 78.627000  -30.162125 63.587900
117.1709  -29.940266 63.834500  -23.548271 78.167800  -42.435311 -134.491300 -0.083796  -5.943400
          -23.548532 78.200400  -23.864330 48.260400  -0.253701  -14.472300 -42.462947 -135.213400
          -42.540567 -134.756100 -0.256796  -14.485200 -23.847947 48.871400  -23.545004 78.196700
          -0.083401  -5.922000  -42.518485 -135.515800 -23.547094 78.225400  -29.752717 63.598900
122.4832  -29.647902 63.812200  -23.175064 77.750700  -42.092654 -135.753900 -0.092000  -6.178300
          -23.174939 77.772600  -23.575627 48.061300  -0.262202  -15.100100 -42.161449 -136.715200
          -42.330178 -135.915800 -0.265103  -15.124100 -23.542000 48.848600  -23.180323 77.816200
          -0.088603  -6.178700  -42.144755 -137.236100 -23.176942 77.783400  -29.363527 63.477100
127.7955  -29.371188 63.817200  -22.825768 77.306400  -41.808879 -137.271900 -0.088402  -6.450700
          -22.827452 77.344400  -23.303959 47.827800  -0.268399  -15.755900 -41.874377 -138.219200
          -41.884082 -137.146500 -0.270800  -15.756900 -23.269087 48.529200  -22.823243 77.370000
          -0.090701  -6.450700  -41.885161 -138.490300 -22.824205 77.368000  -29.129814 63.319600
133.1078  -29.099056 63.963900  -22.486392 76.844200  -41.529939 -138.311500 -0.095600  -6.744700
          -22.486854 76.869200  -23.081923 47.731300  -0.272001  -16.411100 -41.576679 -138.822800
          -41.618438 -138.483200 -0.273103  -16.407800 -23.032153 47.963900  -22.488242 76.937200
          -0.088998  -6.752800  -41.622625 -139.239400 -22.485351 76.922300  -29.013067 62.921300
138.4201  -28.845045 63.955900  -22.161895 76.457700  -41.301955 -139.357900 -0.099702  -6.977300
          -22.161561 76.494700  -22.874971 47.658300  -0.279801  -17.072300 -41.377965 -139.304400
          -41.371860 -139.511900 -0.282403  -17.043800 -22.832384 47.407200  -22.161895 76.544900
          -0.096197  -6.985400  -41.320137 -139.867800 -22.165238 76.494000  -28.942501 62.257400
143.7324  -28.629864 64.024600  -21.851020 76.047000  -41.062116 -140.419000 -0.098797  -7.217900
          -21.851558 76.046900  -22.697447 47.508900  -0.286900  -17.673000 -41.080786 -139.925800
          -41.132088 -140.418700 -0.286200  -17.674800 -22.623351 46.721400  -21.848548 76.144900
          -0.101003  -7.257000  -41.100482 -140.372300 -21.852633 76.103400  -28.909248 61.716700
149.0448  -28.388799 64.023700  -21.553797 75.612100  -40.815355 -141.393000 -0.102101  -7.501200
          -21.555147 75.603300  -22.505494 47.373700  -0.289100  -18.302800 -40.851686 -140.767900
          -40.889131 -141.842100 -0.289899  -18.316100 -22.436805 46.236900  -21.549747 75.686400
          -0.103903  -7.535600  -40.861272 -141.046900 -21.555563 75.697600  -28.767718 61.218500
154.3571  -28.146030 63.784200  -21.261787 75.202200  -40.569844 -142.576600 -0.106901  -7.735100
          -21.266710 75.208700  -22.292210 47.045700  -0.296098  -18.946500 -40.593992 -141.840300
          -40.642491 -142.844300 -0.296601  -18.926800 -22.230344 45.876900  -21.261385 75.303900
          -0.106004  -7.752100  -40.630341 -142.492600 -21.263494 75.246200  -28.567454 61.121000
159.6694  -27.897348 63.444300  -20.985500 74.816600  -40.335596 -143.593200 -0.109900  -7.955800
          -20.988517 74.825500  -22.075981 46.785400  -0.302598  -19.559800 -40.332888 -143.500400
          -40.389934 -144.078900 -0.300997  -19.539900 -22.027142 45.714000  -20.981512 74.904500
          -0.106198  -7.994400  -40.344628 -143.756700 -20.988419 74.865800  -28.247127 61.322100
164.9817  -27.645319 62.881700  -20.721412 74.374800  -40.039175 -145.110100 -0.117099  -8.259800
          -20.723583 74.337400  -21.844896 46.244700  -0.310597  -20.234300 -40.060140 -144.800100
          -40.140098 -145.468800 -0.310804  -20.210800 -21.832445 45.649500  -20.718581 74.415600
          -0.112803  -8.296100  -40.034813 -145.488800 -20.720373 74.417800  -27.928020 61.650800
170.2940  -27.421396 62.441900  -20.456964 73.911000  -39.791457 -146.467500 -0.112302  -8.522100
          -20.459620 73.923800  -21.620322 45.841400  -0.311596  -20.839700 -39.755070 -146.393500
          -39.923899 -146.613000 -0.310597  -20.843300 -21.618438 45.616100  -20.453394 74.030500
          -0.114898  -8.528300  -39.755914 -146.908700 -20.458429 74.007900  -27.586038 62.262300
175.6063  -27.189576 62.242700  -20.212606 73.496600  -39.562988 -147.749600 -0.119203  -8.770200
          -20.214920 73.487500  -21.413461 45.563400  -0.321496  -21.449600 -39.497161 -148.161600
          -39.624326 -147.816100 -0.323200  -21.465900 -21.432800 45.555300  -20.206911 73.581400
          -0.123096  -8.788700  -39.475056 -148.718400 -20.212428 73.593300  -27.283492 62.772600
180.9186  -26.962815 61.930400  -19.966710 73.039800  -39.312244 -148.886900 -0.123404  -9.030400
          -19.968873 73.075700  -21.216307 45.172900  -0.327501  -22.108900 -39.231571 -149.433400
          -39.422071 -149.201900 -0.327898  -22.133900 -21.257369 45.312200  -19.965758 73.167500
          -0.127097  -9.036400  -39.216478 -150.287800 -19.969133 73.144300  -27.019342 63.162600
186.2309  -26.769615 61.900900  -19.734658 72.608100  -39.124112 -150.173500 -0.129600  -9.295100
          -19.735501 72.638600  -20.828531 45.676600  -0.333402  -22.751100 -39.003240 -150.561400
          -39.176885 -150.391100 -0.335496  -22.759600 -21.084328 44.915300  -19.732805 72.743100
          -0.127996  -9.280700  -38.832239 -152.095000 -19.731879 72.721900  -26.789520 63.398100
191.5433  -26.582101 61.679400  -19.505362 72.218800  -38.911570 -151.267700 -0.131302  -9.548800
          -19.509302 72.237900  -20.898759 44.285400  -0.338196  -23.366300 -38.760401 -151.840700
          -38.974634 -151.527400 -0.337699  -23.371000 -20.932539 44.465200  -19.505772 72.324900
          -0.131302  -9.529000  -38.801919 -152.646400 -19.506183 72.325800  -26.558043 63.629100
196.8556  -26.441659 61.501800  -19.286763 71.768800  -38.710840 -152.459200 -0.136700  -9.817900
          -19.285003 71.770200  -20.781931 43.823600  -0.347205  -24.004500 -38.585209 -153.435200
          -38.850482 -152.555700 -0.346798  -24.033200 -20.781171 44.016400  -19.286603 71.882800
          -0.136100  -9.809100  -38.618484 -153.640400 -19.287964 71.900200  -26.296814 62.666200
202.1679  -26.286061 61.415200  -19.071814 71.390900  -38.571934 -153.655400 -0.139701  -10.035900
          -19.072282 71.387700  -20.638283 43.536300  -0.351102  -24.620800 -38.419995 -154.508600
          -38.641481 -153.470200 -0.353001  -24.626900 -20.636601 43.466100  -19.070565 71.500300
          -0.142102  -10.043400 -38.423616 -154.550900 -19.071189 71.496200  -26.198206 61.919700
207.4802  -26.120891 61.248500  -18.863884 70.932900  -38.362257 -154.765100 -0.145299  -10.300900
          -18.867009 70.940000  -20.464566 42.879900  -0.354503  -25.282100 -38.245081 -155.400500
          -38.465007 -154.937700 -0.357797  -25.259700 -20.485391 42.921800  -18.862589 71.068300
          -0.144698  -10.305000 -38.245791 -155.873000 -18.861598 71.042300  -26.093169 61.524200
212.7925  -25.954837 61.225100  -18.664018 70.489100  -38.172993 -155.931900 -0.145997  -10.564900
          -18.660295 70.513200  -20.392205 42.663700  -0.361500  -25.900800 -38.084064 -156.478600
          -38.241534 -156.016100 -0.364996  -25.929500 -20.338937 42.455900  -18.658732 70.638500
          -0.143603  -10.583600 -38.080582 -157.078300 -18.661784 70.629900  -25.946048 61.292200
218.1048  -25.795283 61.209000  -18.462023 70.051100  -37.971933 -156.914400 -0.150998  -10.817900
          -18.462605 70.109200  -20.245692 42.245900  -0.369000  -26.542300 -37.899339 -157.575900
          -38.059715 -157.024700 -0.368203  -26.557200 -20.205132 42.071300  -18.460568 70.187600
          -0.146800  -10.833100 -37.845628 -158.159600 -18.466900 70.184600  -25.795960 61.117300
223.4171  -25.635116 61.184300  -18.268106 69.643000  -37.821937 -158.172700 -0.152898  -11.066600
          -18.272305 69.656300  -20.097216 41.732300  -0.374404  -27.167100 -37.692450 -158.772600
          -37.888434 -158.269400 -0.374104  -27.175000 -20.062065 41.624100  -18.268533 69.757800
          -0.154304  -11.094500 -37.680471 -159.354900 -18.273302 69.746600  -25.654581 61.083700
228.7294  -25.494021 61.114700  -18.087618 69.258100  -37.613562 -159.273200 -0.159699  -11.295300
          -18.089988 69.264200  -19.975367 41.363700  -0.383304  -27.783800 -37.500791 -159.866900
          -37.706446 -159.359300 -0.383096  -27.767400 -19.942516 41.183100  -18.081905 69.385100
          -0.161796  -11.302100 -37.486472 -160.337000 -18.090894 69.360400  -25.515794 60.978500
234.0418  -25.368386 60.941900  -17.905001 68.835200  -37.418454 -160.359700 -0.162300  -11.559900
          -17.908073 68.825600  -19.827571 40.843600  -0.390197  -28.435300 -37.349683 -161.115300
          -37.553061 -160.335200 -0.391396  -28.427200 -19.811407 40.817600  -17.904114 68.947800
          -0.162796  -11.574000 -37.296711 -161.728500 -17.906093 68.913400  -25.374350 60.760900
239.3541  -25.238507 61.010500  -17.725410 68.397600  -37.270028 -161.430800 -0.163601  -11.781300
          -17.728887 68.412000  -19.691799 40.393500  -0.392696  -29.038500 -37.136580 -162.220400
          -37.338807 -161.450700 -0.396404  -29.032500 -19.681912 40.382900  -17.722603 68.545400
          -0.165504  -11.813300 -37.122848 -162.823700 -17.723405 68.529000  -25.230573 60.504100
244.6664  -25.088668 60.820900  -17.557387 67.960200  -37.089235 -162.449900 -0.170800  -12.062500
          -17.556469 67.955200  -19.563484 39.871400  -0.406702  -29.691700 -36.975055 -163.520200
          -37.200530 -162.770900 -0.403499  -29.681800 -19.570673 39.954800  -17.553913 68.108800
